Title: 
Date: Sat Mar 12 01:16:29  2011
Plotname: Transient Analysis
Flags: real
No. Variables: 3
No. Points: 233     
Variables:
	0	time	time
	1	v(1)	voltage
	2	i(vs)	current
Values:
0		0.000000000000000e+00
	0.000000000000000e+00
	0.000000000000000e+00
1		1.000000000000000e-07
	5.000000000000000e-02
	-5.000000000000000e-06
2		2.000000000000000e-07
	1.000000000000000e-01
	-1.000000000000000e-05
3		4.000000000000001e-07
	2.000000000000000e-01
	-2.000000000000000e-05
4		8.000000000000002e-07
	4.000000000000000e-01
	-4.000000000000000e-05
5		1.600000000000000e-06
	8.000000000000000e-01
	-8.000000000000001e-05
6		3.200000000000001e-06
	1.600000000000000e+00
	-1.600000000000000e-04
7		6.400000000000001e-06
	3.200000000000000e+00
	-3.200000000000000e-04
8		1.000000000000000e-05
	5.000000000000000e+00
	-5.000000000000000e-04
9		1.064000000000000e-05
	5.000000000000000e+00
	-5.000000000000000e-04
10		1.192000000000000e-05
	5.000000000000000e+00
	-5.000000000000000e-04
11		1.448000000000000e-05
	5.000000000000000e+00
	-5.000000000000000e-04
12		1.960000000000000e-05
	5.000000000000000e+00
	-5.000000000000000e-04
13		2.960000000000000e-05
	5.000000000000000e+00
	-5.000000000000000e-04
14		3.960000000000000e-05
	5.000000000000000e+00
	-5.000000000000000e-04
15		4.960000000000000e-05
	5.000000000000000e+00
	-5.000000000000000e-04
16		5.960000000000000e-05
	5.000000000000000e+00
	-5.000000000000000e-04
17		6.960000000000000e-05
	5.000000000000000e+00
	-5.000000000000000e-04
18		7.960000000000000e-05
	5.000000000000000e+00
	-5.000000000000000e-04
19		8.960000000000000e-05
	5.000000000000000e+00
	-5.000000000000000e-04
20		9.960000000000000e-05
	5.000000000000000e+00
	-5.000000000000000e-04
21		1.096000000000000e-04
	5.000000000000000e+00
	-5.000000000000000e-04
22		1.196000000000000e-04
	5.000000000000000e+00
	-5.000000000000000e-04
23		1.296000000000000e-04
	5.000000000000000e+00
	-5.000000000000000e-04
24		1.396000000000000e-04
	5.000000000000000e+00
	-5.000000000000000e-04
25		1.496000000000000e-04
	5.000000000000000e+00
	-5.000000000000000e-04
26		1.596000000000000e-04
	5.000000000000000e+00
	-5.000000000000000e-04
27		1.696000000000000e-04
	5.000000000000000e+00
	-5.000000000000000e-04
28		1.796000000000000e-04
	5.000000000000000e+00
	-5.000000000000000e-04
29		1.896000000000000e-04
	5.000000000000000e+00
	-5.000000000000000e-04
30		1.996000000000000e-04
	5.000000000000000e+00
	-5.000000000000000e-04
31		2.096000000000000e-04
	5.000000000000000e+00
	-5.000000000000000e-04
32		2.196000000000000e-04
	5.000000000000000e+00
	-5.000000000000000e-04
33		2.296000000000000e-04
	5.000000000000000e+00
	-5.000000000000000e-04
34		2.396000000000000e-04
	5.000000000000000e+00
	-5.000000000000000e-04
35		2.496000000000000e-04
	5.000000000000000e+00
	-5.000000000000000e-04
36		2.596000000000000e-04
	5.000000000000000e+00
	-5.000000000000000e-04
37		2.696000000000000e-04
	5.000000000000000e+00
	-5.000000000000000e-04
38		2.796000000000001e-04
	5.000000000000000e+00
	-5.000000000000000e-04
39		2.896000000000001e-04
	5.000000000000000e+00
	-5.000000000000000e-04
40		2.996000000000001e-04
	5.000000000000000e+00
	-5.000000000000000e-04
41		3.096000000000002e-04
	5.000000000000000e+00
	-5.000000000000000e-04
42		3.196000000000002e-04
	5.000000000000000e+00
	-5.000000000000000e-04
43		3.296000000000002e-04
	5.000000000000000e+00
	-5.000000000000000e-04
44		3.396000000000002e-04
	5.000000000000000e+00
	-5.000000000000000e-04
45		3.496000000000003e-04
	5.000000000000000e+00
	-5.000000000000000e-04
46		3.596000000000003e-04
	5.000000000000000e+00
	-5.000000000000000e-04
47		3.696000000000003e-04
	5.000000000000000e+00
	-5.000000000000000e-04
48		3.796000000000003e-04
	5.000000000000000e+00
	-5.000000000000000e-04
49		3.896000000000004e-04
	5.000000000000000e+00
	-5.000000000000000e-04
50		3.996000000000004e-04
	5.000000000000000e+00
	-5.000000000000000e-04
51		4.096000000000004e-04
	5.000000000000000e+00
	-5.000000000000000e-04
52		4.196000000000004e-04
	5.000000000000000e+00
	-5.000000000000000e-04
53		4.296000000000005e-04
	5.000000000000000e+00
	-5.000000000000000e-04
54		4.396000000000005e-04
	5.000000000000000e+00
	-5.000000000000000e-04
55		4.496000000000005e-04
	5.000000000000000e+00
	-5.000000000000000e-04
56		4.596000000000005e-04
	5.000000000000000e+00
	-5.000000000000000e-04
57		4.696000000000006e-04
	5.000000000000000e+00
	-5.000000000000000e-04
58		4.796000000000006e-04
	5.000000000000000e+00
	-5.000000000000000e-04
59		4.896000000000006e-04
	5.000000000000000e+00
	-5.000000000000000e-04
60		4.996000000000007e-04
	5.000000000000000e+00
	-5.000000000000000e-04
61		5.096000000000007e-04
	5.000000000000000e+00
	-5.000000000000000e-04
62		5.100000000000000e-04
	5.000000000000000e+00
	-5.000000000000000e-04
63		5.107999999999988e-04
	4.600000000000641e+00
	-4.600000000000641e-04
64		5.123999999999962e-04
	3.800000000001923e+00
	-3.800000000001923e-04
65		5.155999999999911e-04
	2.200000000004486e+00
	-2.200000000004486e-04
66		5.200000000000001e-04
	0.000000000000000e+00
	0.000000000000000e+00
67		5.206399999999991e-04
	0.000000000000000e+00
	0.000000000000000e+00
68		5.219199999999970e-04
	0.000000000000000e+00
	0.000000000000000e+00
69		5.244799999999929e-04
	0.000000000000000e+00
	0.000000000000000e+00
70		5.295999999999847e-04
	0.000000000000000e+00
	0.000000000000000e+00
71		5.395999999999847e-04
	0.000000000000000e+00
	0.000000000000000e+00
72		5.495999999999847e-04
	0.000000000000000e+00
	0.000000000000000e+00
73		5.595999999999848e-04
	0.000000000000000e+00
	0.000000000000000e+00
74		5.695999999999848e-04
	0.000000000000000e+00
	0.000000000000000e+00
75		5.795999999999848e-04
	0.000000000000000e+00
	0.000000000000000e+00
76		5.895999999999848e-04
	0.000000000000000e+00
	0.000000000000000e+00
77		5.995999999999849e-04
	0.000000000000000e+00
	0.000000000000000e+00
78		6.095999999999849e-04
	0.000000000000000e+00
	0.000000000000000e+00
79		6.195999999999849e-04
	0.000000000000000e+00
	0.000000000000000e+00
80		6.295999999999849e-04
	0.000000000000000e+00
	0.000000000000000e+00
81		6.395999999999850e-04
	0.000000000000000e+00
	0.000000000000000e+00
82		6.495999999999850e-04
	0.000000000000000e+00
	0.000000000000000e+00
83		6.595999999999850e-04
	0.000000000000000e+00
	0.000000000000000e+00
84		6.695999999999851e-04
	0.000000000000000e+00
	0.000000000000000e+00
85		6.795999999999851e-04
	0.000000000000000e+00
	0.000000000000000e+00
86		6.895999999999851e-04
	0.000000000000000e+00
	0.000000000000000e+00
87		6.995999999999851e-04
	0.000000000000000e+00
	0.000000000000000e+00
88		7.095999999999852e-04
	0.000000000000000e+00
	0.000000000000000e+00
89		7.195999999999852e-04
	0.000000000000000e+00
	0.000000000000000e+00
90		7.295999999999852e-04
	0.000000000000000e+00
	0.000000000000000e+00
91		7.395999999999852e-04
	0.000000000000000e+00
	0.000000000000000e+00
92		7.495999999999853e-04
	0.000000000000000e+00
	0.000000000000000e+00
93		7.595999999999853e-04
	0.000000000000000e+00
	0.000000000000000e+00
94		7.695999999999853e-04
	0.000000000000000e+00
	0.000000000000000e+00
95		7.795999999999853e-04
	0.000000000000000e+00
	0.000000000000000e+00
96		7.895999999999854e-04
	0.000000000000000e+00
	0.000000000000000e+00
97		7.995999999999854e-04
	0.000000000000000e+00
	0.000000000000000e+00
98		8.095999999999854e-04
	0.000000000000000e+00
	0.000000000000000e+00
99		8.195999999999854e-04
	0.000000000000000e+00
	0.000000000000000e+00
100		8.295999999999855e-04
	0.000000000000000e+00
	0.000000000000000e+00
101		8.395999999999855e-04
	0.000000000000000e+00
	0.000000000000000e+00
102		8.495999999999855e-04
	0.000000000000000e+00
	0.000000000000000e+00
103		8.595999999999855e-04
	0.000000000000000e+00
	0.000000000000000e+00
104		8.695999999999856e-04
	0.000000000000000e+00
	0.000000000000000e+00
105		8.795999999999856e-04
	0.000000000000000e+00
	0.000000000000000e+00
106		8.895999999999856e-04
	0.000000000000000e+00
	0.000000000000000e+00
107		8.995999999999857e-04
	0.000000000000000e+00
	0.000000000000000e+00
108		9.095999999999857e-04
	0.000000000000000e+00
	0.000000000000000e+00
109		9.195999999999857e-04
	0.000000000000000e+00
	0.000000000000000e+00
110		9.295999999999857e-04
	0.000000000000000e+00
	0.000000000000000e+00
111		9.395999999999858e-04
	0.000000000000000e+00
	0.000000000000000e+00
112		9.495999999999858e-04
	0.000000000000000e+00
	0.000000000000000e+00
113		9.595999999999858e-04
	0.000000000000000e+00
	0.000000000000000e+00
114		9.695999999999858e-04
	0.000000000000000e+00
	0.000000000000000e+00
115		9.795999999999859e-04
	0.000000000000000e+00
	0.000000000000000e+00
116		9.895999999999859e-04
	0.000000000000000e+00
	0.000000000000000e+00
117		9.995999999999859e-04
	0.000000000000000e+00
	0.000000000000000e+00
118		1.000000000000000e-03
	0.000000000000000e+00
	0.000000000000000e+00
119		1.000800000000028e-03
	4.000000000141043e-01
	-4.000000000141043e-05
120		1.002400000000085e-03
	1.200000000042313e+00
	-1.200000000042313e-04
121		1.005600000000197e-03
	2.800000000098730e+00
	-2.800000000098730e-04
122		1.010000000000000e-03
	5.000000000000000e+00
	-5.000000000000000e-04
123		1.010640000000023e-03
	5.000000000000000e+00
	-5.000000000000000e-04
124		1.011920000000068e-03
	5.000000000000000e+00
	-5.000000000000000e-04
125		1.014480000000158e-03
	5.000000000000000e+00
	-5.000000000000000e-04
126		1.019600000000339e-03
	5.000000000000000e+00
	-5.000000000000000e-04
127		1.029600000000339e-03
	5.000000000000000e+00
	-5.000000000000000e-04
128		1.039600000000339e-03
	5.000000000000000e+00
	-5.000000000000000e-04
129		1.049600000000339e-03
	5.000000000000000e+00
	-5.000000000000000e-04
130		1.059600000000339e-03
	5.000000000000000e+00
	-5.000000000000000e-04
131		1.069600000000339e-03
	5.000000000000000e+00
	-5.000000000000000e-04
132		1.079600000000339e-03
	5.000000000000000e+00
	-5.000000000000000e-04
133		1.089600000000339e-03
	5.000000000000000e+00
	-5.000000000000000e-04
134		1.099600000000339e-03
	5.000000000000000e+00
	-5.000000000000000e-04
135		1.109600000000339e-03
	5.000000000000000e+00
	-5.000000000000000e-04
136		1.119600000000339e-03
	5.000000000000000e+00
	-5.000000000000000e-04
137		1.129600000000339e-03
	5.000000000000000e+00
	-5.000000000000000e-04
138		1.139600000000339e-03
	5.000000000000000e+00
	-5.000000000000000e-04
139		1.149600000000339e-03
	5.000000000000000e+00
	-5.000000000000000e-04
140		1.159600000000339e-03
	5.000000000000000e+00
	-5.000000000000000e-04
141		1.169600000000339e-03
	5.000000000000000e+00
	-5.000000000000000e-04
142		1.179600000000339e-03
	5.000000000000000e+00
	-5.000000000000000e-04
143		1.189600000000339e-03
	5.000000000000000e+00
	-5.000000000000000e-04
144		1.199600000000339e-03
	5.000000000000000e+00
	-5.000000000000000e-04
145		1.209600000000339e-03
	5.000000000000000e+00
	-5.000000000000000e-04
146		1.219600000000339e-03
	5.000000000000000e+00
	-5.000000000000000e-04
147		1.229600000000339e-03
	5.000000000000000e+00
	-5.000000000000000e-04
148		1.239600000000339e-03
	5.000000000000000e+00
	-5.000000000000000e-04
149		1.249600000000339e-03
	5.000000000000000e+00
	-5.000000000000000e-04
150		1.259600000000339e-03
	5.000000000000000e+00
	-5.000000000000000e-04
151		1.269600000000339e-03
	5.000000000000000e+00
	-5.000000000000000e-04
152		1.279600000000339e-03
	5.000000000000000e+00
	-5.000000000000000e-04
153		1.289600000000339e-03
	5.000000000000000e+00
	-5.000000000000000e-04
154		1.299600000000339e-03
	5.000000000000000e+00
	-5.000000000000000e-04
155		1.309600000000339e-03
	5.000000000000000e+00
	-5.000000000000000e-04
156		1.319600000000339e-03
	5.000000000000000e+00
	-5.000000000000000e-04
157		1.329600000000339e-03
	5.000000000000000e+00
	-5.000000000000000e-04
158		1.339600000000339e-03
	5.000000000000000e+00
	-5.000000000000000e-04
159		1.349600000000339e-03
	5.000000000000000e+00
	-5.000000000000000e-04
160		1.359600000000339e-03
	5.000000000000000e+00
	-5.000000000000000e-04
161		1.369600000000339e-03
	5.000000000000000e+00
	-5.000000000000000e-04
162		1.379600000000339e-03
	5.000000000000000e+00
	-5.000000000000000e-04
163		1.389600000000340e-03
	5.000000000000000e+00
	-5.000000000000000e-04
164		1.399600000000340e-03
	5.000000000000000e+00
	-5.000000000000000e-04
165		1.409600000000340e-03
	5.000000000000000e+00
	-5.000000000000000e-04
166		1.419600000000340e-03
	5.000000000000000e+00
	-5.000000000000000e-04
167		1.429600000000340e-03
	5.000000000000000e+00
	-5.000000000000000e-04
168		1.439600000000340e-03
	5.000000000000000e+00
	-5.000000000000000e-04
169		1.449600000000340e-03
	5.000000000000000e+00
	-5.000000000000000e-04
170		1.459600000000340e-03
	5.000000000000000e+00
	-5.000000000000000e-04
171		1.469600000000340e-03
	5.000000000000000e+00
	-5.000000000000000e-04
172		1.479600000000340e-03
	5.000000000000000e+00
	-5.000000000000000e-04
173		1.489600000000340e-03
	5.000000000000000e+00
	-5.000000000000000e-04
174		1.499600000000340e-03
	5.000000000000000e+00
	-5.000000000000000e-04
175		1.509600000000340e-03
	5.000000000000000e+00
	-5.000000000000000e-04
176		1.510000000000000e-03
	5.000000000000000e+00
	-5.000000000000000e-04
177		1.510799999999320e-03
	4.600000000339779e+00
	-4.600000000339780e-04
178		1.512399999997961e-03
	3.800000001019338e+00
	-3.800000001019338e-04
179		1.515599999995243e-03
	2.200000002378455e+00
	-2.200000002378455e-04
180		1.520000000000000e-03
	0.000000000000000e+00
	0.000000000000000e+00
181		1.520639999999456e-03
	0.000000000000000e+00
	0.000000000000000e+00
182		1.521919999998369e-03
	0.000000000000000e+00
	0.000000000000000e+00
183		1.524479999996195e-03
	0.000000000000000e+00
	0.000000000000000e+00
184		1.529599999991845e-03
	0.000000000000000e+00
	0.000000000000000e+00
185		1.539599999991845e-03
	0.000000000000000e+00
	0.000000000000000e+00
186		1.549599999991845e-03
	0.000000000000000e+00
	0.000000000000000e+00
187		1.559599999991845e-03
	0.000000000000000e+00
	0.000000000000000e+00
188		1.569599999991845e-03
	0.000000000000000e+00
	0.000000000000000e+00
189		1.579599999991846e-03
	0.000000000000000e+00
	0.000000000000000e+00
190		1.589599999991846e-03
	0.000000000000000e+00
	0.000000000000000e+00
191		1.599599999991846e-03
	0.000000000000000e+00
	0.000000000000000e+00
192		1.609599999991846e-03
	0.000000000000000e+00
	0.000000000000000e+00
193		1.619599999991846e-03
	0.000000000000000e+00
	0.000000000000000e+00
194		1.629599999991846e-03
	0.000000000000000e+00
	0.000000000000000e+00
195		1.639599999991846e-03
	0.000000000000000e+00
	0.000000000000000e+00
196		1.649599999991846e-03
	0.000000000000000e+00
	0.000000000000000e+00
197		1.659599999991846e-03
	0.000000000000000e+00
	0.000000000000000e+00
198		1.669599999991846e-03
	0.000000000000000e+00
	0.000000000000000e+00
199		1.679599999991846e-03
	0.000000000000000e+00
	0.000000000000000e+00
200		1.689599999991846e-03
	0.000000000000000e+00
	0.000000000000000e+00
201		1.699599999991846e-03
	0.000000000000000e+00
	0.000000000000000e+00
202		1.709599999991846e-03
	0.000000000000000e+00
	0.000000000000000e+00
203		1.719599999991846e-03
	0.000000000000000e+00
	0.000000000000000e+00
204		1.729599999991846e-03
	0.000000000000000e+00
	0.000000000000000e+00
205		1.739599999991846e-03
	0.000000000000000e+00
	0.000000000000000e+00
206		1.749599999991846e-03
	0.000000000000000e+00
	0.000000000000000e+00
207		1.759599999991846e-03
	0.000000000000000e+00
	0.000000000000000e+00
208		1.769599999991846e-03
	0.000000000000000e+00
	0.000000000000000e+00
209		1.779599999991846e-03
	0.000000000000000e+00
	0.000000000000000e+00
210		1.789599999991846e-03
	0.000000000000000e+00
	0.000000000000000e+00
211		1.799599999991846e-03
	0.000000000000000e+00
	0.000000000000000e+00
212		1.809599999991846e-03
	0.000000000000000e+00
	0.000000000000000e+00
213		1.819599999991846e-03
	0.000000000000000e+00
	0.000000000000000e+00
214		1.829599999991846e-03
	0.000000000000000e+00
	0.000000000000000e+00
215		1.839599999991846e-03
	0.000000000000000e+00
	0.000000000000000e+00
216		1.849599999991846e-03
	0.000000000000000e+00
	0.000000000000000e+00
217		1.859599999991846e-03
	0.000000000000000e+00
	0.000000000000000e+00
218		1.869599999991846e-03
	0.000000000000000e+00
	0.000000000000000e+00
219		1.879599999991846e-03
	0.000000000000000e+00
	0.000000000000000e+00
220		1.889599999991846e-03
	0.000000000000000e+00
	0.000000000000000e+00
221		1.899599999991846e-03
	0.000000000000000e+00
	0.000000000000000e+00
222		1.909599999991846e-03
	0.000000000000000e+00
	0.000000000000000e+00
223		1.919599999991846e-03
	0.000000000000000e+00
	0.000000000000000e+00
224		1.929599999991846e-03
	0.000000000000000e+00
	0.000000000000000e+00
225		1.939599999991846e-03
	0.000000000000000e+00
	0.000000000000000e+00
226		1.949599999991846e-03
	0.000000000000000e+00
	0.000000000000000e+00
227		1.959599999991847e-03
	0.000000000000000e+00
	0.000000000000000e+00
228		1.969599999991847e-03
	0.000000000000000e+00
	0.000000000000000e+00
229		1.979599999991847e-03
	0.000000000000000e+00
	0.000000000000000e+00
230		1.989599999991847e-03
	0.000000000000000e+00
	0.000000000000000e+00
231		1.999599999991847e-03
	0.000000000000000e+00
	0.000000000000000e+00
232		2.000000000000000e-03
	0.000000000000000e+00
	0.000000000000000e+00
